f,vin,vout
1,3.40,0.0160
2,3.40,0.0520
3,3.40,0.112
4,3.44,0.216
5,3.48,0.364
6,3.48,0.520
7,3.48,0.720
8,3.48,1.00
9,3.48,1.34
10,3.56,1.92
13,3.48,6.20
14,3.40,8.80
15,3.12,15.8
16,2.2,26.6
17,2.76,23.0
18,3.2,17.2
20,3.44,10.8
25,3.52,6.80
30,3.56,5.12
40,3.56,4.32
50,3.52,4.00
60,3.52,3.84
70,3.52,3.76
80,3.56,3.68
90,3.56,3.68
100,3.56,3.68